# HZ S RI R 50
1000000 0.5823367435561015 -0.6271471734744093
1028741 0.49881747646923025 -0.6886244642175245
1057482 0.40749856506201065 -0.7368679492082744
1086223 0.3134791242133945 -0.7712410211151123
1114964 0.21947133555765075 -0.7928040603695482
1143705 0.12411290791383929 -0.8044317466720111
1172446 0.031589776821514835 -0.8037786535989084
1201187 -0.05960857316381999 -0.7927069712434892
1229928 -0.14539179577544742 -0.7674435020147191
1258669 -0.22653836396061722 -0.7330929928816732
1287410 -0.2966520248235032 -0.690789302093528
1316151 -0.36034099530908953 -0.6392912961503451
1344892 -0.4089296690159473 -0.5841439720979358
1373633 -0.4468319955588541 -0.536570517806251
1402374 -0.49224916432927407 -0.4834658039998651
1431115 -0.5325306026717875 -0.4227716315728672
1459856 -0.5611685661386245 -0.3568326257874225
1488597 -0.5801711522528018 -0.2887458821321113
1517338 -0.5882623720344876 -0.22032985201366453
1546079 -0.5883521885664094 -0.15422395118684018
1574820 -0.5794737911663672 -0.08995784888942986
1603561 -0.5638023974489258 -0.030170713019683704
1632302 -0.541032565908136 0.025934110661328034
1661043 -0.5134325240434724 0.07645091227875742
1689784 -0.48010295577252493 0.12108349475931655
1718525 -0.44433129586085474 0.16070727500109214
1747266 -0.4030814706799735 0.1945737027846056
1776007 -0.36109532919238874 0.22192125926225462
1804748 -0.31874918892428383 0.24352584988071016
1833489 -0.2749630858076806 0.25947465298216216
1862230 -0.2313468917659813 0.271522656044086
1890971 -0.18952049901959567 0.276642418984898
1919712 -0.14700175966313891 0.27898881484757043
1948453 -0.10717012830529543 0.2757503620260303
1977194 -0.06786639978012601 0.26964251507584236
2005935 -0.033278163180479 0.2603321302317123
2034676 0.0006633901457108751 0.24692904967479118
2063417 0.031540751419992755 0.23233106383833832
2092158 0.06019521106934368 0.21525528235417654
2120899 0.0869196815792801 0.19656157518437048
2149640 0.11051997827801799 0.17449462298216203
2178381 0.1318079524501418 0.15333774877390874
2207122 0.15060904916045773 0.12986806504788082
2235863 0.167125421208563 0.1073491267279232
2264604 0.18087417125070493 0.08235226642731673
2293345 0.19238354546665848 0.05816585999498663
2322086 0.2028854265784348 0.033343532531525666
2350827 0.20969579316642759 0.008539569623953736
2379568 0.21644039421048905 -0.014568268764990403
2408309 0.22114239595032342 -0.037744121571754184
2437050 0.22390637334798927 -0.06075328957533055
2465791 0.2238465650225398 -0.0843867545399389
2494532 0.2253162432925616 -0.10601806205708128
2523273 0.222846837455701 -0.1285480133511147
2552014 0.22078171686221176 -0.1493610911987918
2580755 0.2174217515777817 -0.17049566937854624
2609496 0.21305438782892272 -0.19038325217785365
2638237 0.20696275064153516 -0.20912857918343486
2666978 0.20008039725599128 -0.22747180781175158
2695719 0.19306840819365734 -0.24514955294863408
2724460 0.1849860937615656 -0.262367335396236
2753201 0.17707106020181526 -0.27912471742462014
2781942 0.16668060176524627 -0.2948062945594382
2810683 0.15866209857898994 -0.3098197758953659
2839424 0.14921406602263831 -0.324764664703687
2868165 0.1381106857264593 -0.33908470386706574
2896906 0.12667671620672985 -0.35209518925383304
2925647 0.11468820244867778 -0.36452794073549366
2954388 0.10342249947372051 -0.3757639522629882
2983129 0.09356653483848092 -0.38760503833569077
3011870 0.08118721327267543 -0.39910388827759513
3040611 0.06731038764330238 -0.40890443082651723
3069352 0.05564672396068026 -0.41922132423684494
3098093 0.04198048033433683 -0.42677198773969527
3126834 0.03029987666581828 -0.43503149638763194
3155575 0.017116137286478005 -0.44474366290290296
3184316 0.005079742210411078 -0.4514961544553517
3213057 -0.005802537410765505 -0.45883574123754434
3241798 -0.022789696367666614 -0.4649441556659823
3270539 -0.03519522948179678 -0.47029308183163987
3299280 -0.04954326512838482 -0.47589029025971796
3328021 -0.06140974493081855 -0.4806366308405318
3356762 -0.0750277939797053 -0.48483693772972586
3385503 -0.08803347177540001 -0.4885432522048756
3414244 -0.10185430745255056 -0.49405284149589446
3442985 -0.11543707894391939 -0.49621619000474465
3471726 -0.12923648300375376 -0.49942998078971723
3500467 -0.1418375426834849 -0.5028946327069125
3529208 -0.15595905872635912 -0.50535636664722
3557949 -0.16886329325908578 -0.5070882818593885
3586690 -0.18333277375176973 -0.5079732501753749
3615431 -0.19671924775069663 -0.5099017263113973
3644172 -0.2109562384097156 -0.5105038812843646
3672913 -0.22269784025893213 -0.5091126822339772
3701654 -0.23689996695256524 -0.5086197039555005
3730395 -0.2500804043909216 -0.5081168968126518
3759136 -0.2623803873165141 -0.5072662881749577
3787877 -0.2750362435612948 -0.5050843177415922
3816618 -0.28805211136149905 -0.5035208650052905
3845359 -0.3004247263077883 -0.5027168863886748
3874100 -0.312032928159699 -0.5001304759220677
3902841 -0.32451496666032537 -0.4979776512604195
3931582 -0.3364816416254677 -0.49514625757286157
3960323 -0.3481602538706981 -0.4915360501714642
3989064 -0.359274372398806 -0.488084749724884
4017805 -0.3717660946566399 -0.48454100124118116
4046546 -0.383594118888918 -0.4803403761386033
4075287 -0.39475948247517273 -0.4764532229296223
4104028 -0.40455741467176237 -0.4712186854509097
4132769 -0.4164706075239562 -0.46726372551905676
4161510 -0.42675014955497403 -0.4622298183713299
4190251 -0.4378001254511745 -0.4562721093554543
4218992 -0.447058042609549 -0.45156222941481133
4247733 -0.45737845435691754 -0.44564714519609183
4276474 -0.4684457001795937 -0.4401593362715333
4305215 -0.4762374427019979 -0.4346290583329028
4333956 -0.48583612185032793 -0.4308265026009867
4362697 -0.4955380540465896 -0.4254929356926789
4391438 -0.504928536091369 -0.419236057695368
4420179 -0.5148799007101758 -0.41237601758089115
4448920 -0.5253139000861307 -0.4075021304868263
4477661 -0.5349251554426949 -0.4015079830256562
4506402 -0.5452145818805326 -0.39391839039014614
4535143 -0.553666795116897 -0.3882333494313934
4563884 -0.5624374097159438 -0.37982844130061943
4592625 -0.5719031899719721 -0.37184186395638497
4621366 -0.5811740495919219 -0.3640094343964706
4650107 -0.5890564624422905 -0.3558648435650597
4678848 -0.5987465012320853 -0.3475625027558204
4707589 -0.6065047110702004 -0.3391554013536947
4736330 -0.6153765404396342 -0.3298853955108964
4765071 -0.6209130192842681 -0.3206307368259412
4793812 -0.6292274551638478 -0.311423981988917
4822553 -0.6358107367981253 -0.30173816207662557
4851294 -0.6424730196628058 -0.2934147106625808
4880035 -0.6508471486459594 -0.28387262849372286
4908776 -0.6564171568013012 -0.2741974455233252
4937517 -0.662370486981196 -0.2634841700029214
4966258 -0.6679772608107115 -0.2530223504902876
4994999 -0.6741102066233543 -0.24340582678535577
5023740 -0.6792949214875347 -0.2328374204187597
5052481 -0.685369873210058 -0.22270686808648807
5081222 -0.6906813767846306 -0.2125552506843596
5109963 -0.6937877290445694 -0.20299095854437194
5138704 -0.6987132061302781 -0.19370391915935448
5167445 -0.7030218978365738 -0.1824512425437896
5196186 -0.7079636166684459 -0.17086180313127233
5224927 -0.7123791064066093 -0.1601702492075788
5253668 -0.7180106609386867 -0.14706280243518927
5282409 -0.7221039680237429 -0.13591714676098185
5311150 -0.7252577777380249 -0.1248779868241189
5339891 -0.728378377564609 -0.11379748432830489
5368632 -0.7325163075505946 -0.10191026885816033
5397373 -0.734402989361185 -0.08945268222529511
5426114 -0.7363148184654961 -0.07455688211092842
5454855 -0.7388824194516034 -0.06232223513763026
5483596 -0.7406790693070632 -0.0507480224406625
5512337 -0.7428211675254197 -0.0371293176279218
5541078 -0.7437906608206167 -0.025327762781864153
5569819 -0.7433817596010962 -0.011201936362552482
5598560 -0.7435186790729812 0.002681335460245115
5627301 -0.7416481664465873 0.017338008700280325
5656042 -0.7403737948755644 0.02943120823812626
5684783 -0.7427864053757981 0.04471235750890783
5713524 -0.7414227605156135 0.05663584715778317
5742265 -0.7387414136597107 0.06967417856979445
5771006 -0.7360911811324911 0.08328049470801445
5799747 -0.7347802528632786 0.0974955765704885
5828488 -0.7278142342628077 0.11174137649278996
5857229 -0.7289644492743509 0.1262058120743848
5885970 -0.7276636479932055 0.1423578714169147
5914711 -0.7225966405097095 0.15554595656124703
5943452 -0.7148602649224782 0.17119415273772065
5972193 -0.7057643981315078 0.18680440903551776
6000934 -0.6942430781175958 0.19995840717986002
6029675 -0.6883948710291548 0.214449117627681
6058416 -0.6819554874847107 0.23266386509511197
6087157 -0.6805416701142633 0.23714234822791636
6115898 -0.6630742733130566 0.2605242402665239
6144639 -0.6532711023676233 0.2719653239185086
6173380 -0.6401531694898268 0.283483939558732
6202121 -0.6264486962353182 0.29405490722940436
6230862 -0.6192441600499161 0.31120147607061277
6259603 -0.6055917361824802 0.32814122576467397
6288344 -0.5924620673307893 0.34162530250057555
6317085 -0.5770968951219725 0.35925676944696344
6345826 -0.5592406967092958 0.36892457965002695
6374567 -0.5378376914825534 0.3855100901397611
6403308 -0.514608402860378 0.39264516136730093
6432049 -0.4920684916761614 0.4174777245379698
6460790 -0.444183391534938 0.4342182080216905
6489531 -0.4315471612913252 0.4398167317892359
6518272 -0.399340626964153 0.44329868686808666
6547013 -0.3669308664941988 0.44289506732422523
6575754 -0.33522357142720227 0.4296633560443185
6604495 -0.300929400680403 0.4256290432980414
6633236 -0.25125085704666045 0.43665100774182125
6661977 -0.20841912853135447 0.4192185715851752
6690718 -0.17389190579381902 0.4000956647239719
6719459 -0.1586630729338196 0.37082451927801335
6748200 -0.12121494755353758 0.3450663409437946
6776941 -0.11499720568579723 0.30800176627561016
6805682 -0.061387170885733255 0.27755143121526826
6834423 -0.015907578023007504 0.23355500105465368
6863164 -0.0043637793959011295 0.17778294972643593
6891905 0.004372296607676019 0.13171927183307047
6920646 0.010369690859781597 0.08489185980446075
6949387 -0.027315072233988356 0.06646231277928745
6978128 -0.036398959427397126 0.013583462886348496
7006869 -0.05840972308247601 0.024811798175502515
7035610 -0.0636034560608007 -0.0963245559639838
7064351 -0.11168123657542085 -0.12129479582080564
7093092 -0.13808531440859406 -0.14442910274080034
7121833 -0.15656548344871474 -0.14283260058992123
7150574 -0.15239777024692353 -0.1351289003431082
7179315 -0.12237035589427928 -0.13908787190606997
7208056 -0.15377499921335477 -0.16661717133895196
7236797 -0.2652239361912246 -0.1772132270897281
7265538 -0.23684001935733723 -0.14048960742309205
7294279 -0.263551951760259 -0.17769225846332865
7323020 -0.2532479424565747 -0.24614094639486925
7351761 -0.278157537577228 -0.24377717524068976
7380502 -0.3014695900154666 -0.2837197865145904
7409243 -0.3270194783576725 -0.22706951846076537
7437984 -0.34232963926558646 -0.2571767408183111
7466725 -0.37154547351614686 -0.26830674879993255
7495466 -0.39363163724211253 -0.2599843575222964
7524207 -0.4430078394575413 -0.2876440165066643
7552948 -0.46810766593260655 -0.288279148488892
7581689 -0.5130996528518339 -0.29077605889774677
7610430 -0.5106862652625807 -0.2785386691696011
7639171 -0.5477234359297196 -0.2702345685380777
7667912 -0.5747831311785838 -0.25980279329856093
7696653 -0.5951054403124014 -0.24962859598073417
7725394 -0.6292446930956435 -0.23201100741871505
7754135 -0.6551323426454806 -0.2153269677504308
7782876 -0.6703046697822068 -0.20010924382868836
7811617 -0.6808527786767391 -0.18487575960651054
7840358 -0.6947676958076052 -0.16574083503359477
7869099 -0.7088945682450014 -0.14743784042833474
7897840 -0.7231312193142233 -0.12730699871799628
7926581 -0.7314713104117209 -0.11024904100924038
7955322 -0.7421511457220654 -0.09213245055038954
7984063 -0.7457062951803222 -0.07954269101309545
8012804 -0.7521084290368777 -0.06347604330944452
8041545 -0.7578018839773172 -0.04869839722923776
8070286 -0.762671805217892 -0.033213821674591984
8099027 -0.769271396912895 -0.015997557405088743
8127768 -0.7731075943186089 -0.0024118458047437895
8156509 -0.777606880724488 0.01259350370873514
8185250 -0.7797170692400573 0.02364544216392147
8213991 -0.7851589731447093 0.0363369267816417
8242732 -0.7868184173825266 0.04924822608502706
8271473 -0.7901210800039054 0.06390643534831572
8300214 -0.7921196661938957 0.07828864192711955
8328955 -0.7937933308184562 0.09281438736365606
8357696 -0.79484226497906 0.10505304960836082
8386437 -0.7959919757175309 0.11658012943911002
8415178 -0.7959211761566526 0.12902183782553053
8443919 -0.7962848652081367 0.14043197219877424
8472660 -0.7957509176071643 0.1553520451518785
8501401 -0.7961084955133023 0.16627434157997714
8530142 -0.7949917166155326 0.1789291008526741
8558883 -0.7964254532986147 0.1867368332608414
8587624 -0.7952007045813038 0.1988544610508156
8616365 -0.7949874329912124 0.21001789892236195
8645106 -0.7934891548126988 0.22140186685768945
8673847 -0.7906384226559079 0.2328397578822404
8702588 -0.7896157743459858 0.24344473207388823
8731329 -0.7867589897349874 0.25419132555980783
8760070 -0.7872215231912445 0.2630618112792363
8788811 -0.7855461911079963 0.27391408292618535
8817552 -0.7830426204829393 0.2842729864822364
8846293 -0.7806602016929798 0.2943527067980153
8875034 -0.7766464708080105 0.3036347709278432
8903775 -0.7729870959972336 0.3126616399648843
8932516 -0.770720285865973 0.321940364929403
8961257 -0.7692738659245208 0.331872857863778
8989998 -0.7653772087768878 0.34217153396916966
9018739 -0.7644816968652021 0.35074849515916606
9047480 -0.7597499496306599 0.3591886383161653
9076221 -0.7556897884757837 0.3672460834893933
9104962 -0.7531631073158721 0.37360819800525547
9133703 -0.7509904593501849 0.3842934963897477
9162444 -0.7472084002569643 0.39307045294729404
9191185 -0.7429674050652844 0.4010189741182235
9219926 -0.7391282526242734 0.4083891272378581
9248667 -0.7371986882771168 0.4170792502428457
9277408 -0.7339472327672396 0.4250681335788679
9306149 -0.7303538494222903 0.43268665950910634
9334890 -0.7260923579861492 0.44120963485968306
9363631 -0.7222135536685541 0.4486497071159
9392372 -0.7218747586093042 0.4580465275638235
9421113 -0.7144474426540741 0.462523055752654
9449854 -0.710615839824049 0.4714820569875009
9478595 -0.7061394801337463 0.4778999389834856
9507336 -0.701939103915407 0.4847679890042276
9536077 -0.6965928972708311 0.4935260590917612
9564818 -0.6945408185588374 0.5002274788119648
9593559 -0.6902964383598923 0.5064388383634738
9622300 -0.685679247834966 0.5150193853383651
9651041 -0.6824553127487002 0.5214559353501449
9679782 -0.677023812211366 0.5295023602159141
9708523 -0.6719926367533553 0.5365479845240507
9737264 -0.6674572476084488 0.5427080511133159
9766005 -0.6633721335131005 0.5500567007363932
9794746 -0.6567011550904928 0.5576343046921427
9823487 -0.6528431346940808 0.5622166323432892
9852228 -0.6469568265173199 0.572352404467187
9880969 -0.6416345794652578 0.5771113540924394
9909710 -0.6369940059142929 0.5846320382911774
9938451 -0.6320734569471896 0.5900100378055924
9967192 -0.6268982681711457 0.5969608724977392
9995933 -0.6195569370362113 0.6016956891951419
10024674 -0.6141497670881847 0.6077742628156938
10053415 -0.6077049391669264 0.6142543643208149
10082156 -0.6031596337415385 0.6200691970340709
10110897 -0.5971087257482913 0.6255439070548587
10139638 -0.5915036986026999 0.6303757657901156
10168379 -0.5882772015269794 0.6341638695649825
10197120 -0.5810413554159429 0.6417251646383885
10225861 -0.5747715359620292 0.6467718803305014
10254602 -0.5697277355576449 0.6516609124877664
10283343 -0.563433094919273 0.6582003965452699
10312084 -0.5570092198695572 0.6617089453285722
10340825 -0.5506926664059512 0.6678034408903938
10369566 -0.5464410371176567 0.67049136147848
10398307 -0.5393968068783432 0.6765233515077032
10427048 -0.5344618552535815 0.681047186044679
10455789 -0.52885563752511 0.6865356680660393
10484530 -0.5235086980464494 0.69155482963016
10513271 -0.51842457174215 0.6935235795540917
10542012 -0.510243675880884 0.6995018642611653
10570753 -0.505794940869145 0.7039475951754561
10599494 -0.5003773913399474 0.7105982972793737
10628235 -0.49384373819486765 0.7152283526744265
10656976 -0.4889835128334296 0.7194571802099865
10685717 -0.48315527052982665 0.723153667259207
10714458 -0.4762586621911412 0.7283513519123813
10743199 -0.4702959045353722 0.7338105241127701
10771940 -0.4626839674399533 0.7382936470912312
10800681 -0.4568947915853744 0.7431117665737483
10829422 -0.45019923489406843 0.747887016244172
10858163 -0.4435808384046604 0.7516019089994337
10886904 -0.4371677502801357 0.7566389797494156
10915645 -0.43148624621295156 0.7595203872710605
10944386 -0.4241914885275536 0.7640779383978015
10973127 -0.4175172735849193 0.7702535114860783
11001868 -0.41162036218124254 0.7713480005464386
11030609 -0.40349589214358755 0.7758619807867426
11059350 -0.3962283792860613 0.7797100665976636
11088091 -0.390084338401 0.7846108815965845
11116832 -0.382904437025252 0.7866809639594468
11145573 -0.37479840257211156 0.7911403018473538
11174314 -0.36636607351987466 0.7951408072145818
11203055 -0.3599863897190602 0.7995900994287916
11231796 -0.3532057456512511 0.8015868737714176
11260537 -0.3456422481606852 0.8055233625223458
11289278 -0.3392735905307299 0.80968530166523
11318019 -0.3294658214765211 0.8125259989548878
11346760 -0.32583908560656527 0.8161929225957647
11375501 -0.31677633761485224 0.8187984415519686
11404242 -0.3081376760674134 0.8206750409204618
11432983 -0.30082643559449485 0.8226272289176895
11461724 -0.2941414677885445 0.8283505053695519
11490465 -0.28726322069397087 0.8311262655856101
11519206 -0.27876980575481153 0.8319600047173327
11547947 -0.2688412429375939 0.834140183826775
11576688 -0.2613058308351185 0.8389691563327012
11605429 -0.25337523953231256 0.8401296998200469
11634170 -0.2480194106246432 0.8402289206932325
11662911 -0.23508924271962803 0.8451251183715814
11691652 -0.23180792391468172 0.8461763351684729
11720393 -0.223876901013482 0.8482851224027909
11749134 -0.21192207819915573 0.8509829783289706
11777875 -0.20508750316331434 0.8541403685874853
11806616 -0.19425527186325384 0.8577663922243038
11835357 -0.18858196071638805 0.8585428751751116
11864098 -0.17974842009787645 0.8621111564247559
11892839 -0.17154368876257867 0.8637630674825756
11921580 -0.1627344797765519 0.8636365648275584
11950321 -0.15241890860613544 0.866217169878179
11979062 -0.14451734428664764 0.8627109152758489
12007803 -0.136378454659514 0.8699871144048811
12036544 -0.12616324705660112 0.870913727504552
12065285 -0.11530169620663638 0.8710648032732397
12094026 -0.10830065977722912 0.8726984070602299
12122767 -0.09528831644247339 0.8727155275612742
12151508 -0.08732218349413785 0.8739239285380924
12180249 -0.07956727950382016 0.8752840993751348
12208990 -0.06888649690848381 0.8755250226915573
12237731 -0.05917114612490069 0.8752610373524081
12266472 -0.05001944656560534 0.8761439686729351
12295213 -0.03927887808033212 0.8772371403327844
12323954 -0.028187075082576358 0.876645883449731
12352695 -0.020053570855058683 0.8738832910948853
12381436 -0.009226030042529641 0.8760383974157034
12410177 0.0011504500988982966 0.8746457008016727
12438918 0.010282739537841873 0.874449140608299
12467659 0.0206172965365842 0.8728718684216857
12496400 0.032536714583280286 0.8714222012778772
12525141 0.04484556275962933 0.8708487121549369
12553882 0.05562988321399547 0.8673418099088384
12582623 0.0648177121718022 0.8660071250652795
12611364 0.07535882313467886 0.8645498609395835
12640105 0.08808253393410469 0.8616983946481265
12668846 0.09822140901085172 0.8600845432662535
12697587 0.10865982986751561 0.8571161591402674
12726328 0.12141625374678741 0.8550317845970586
12755069 0.1315288647868385 0.8515670047244658
12783810 0.1439981607202885 0.8474610431859413
12812551 0.15665993903207895 0.8436433861848968
12841292 0.1665059360711204 0.8398463312122417
12870033 0.18230027364795612 0.8363383534858376
12898774 0.19010044706797105 0.830468316994975
